
T0D6C 000:048 SEGGER J-Link V6.10i Log File (0000ms, 0027ms total)
T0D6C 000:048 DLL Compiled: Oct 25 2016 19:31:51 (0000ms, 0027ms total)
T0D6C 000:048 Logging started @ 2018-10-04 12:03 (0000ms, 0027ms total)
T0D6C 000:048 JLINK_SetWarnOutHandler(...) (0000ms, 0027ms total)
T0D6C 000:048 JLINK_OpenEx(...)
Firmware: J-Link V10 compiled Feb  2 2018 18:12:40
Hardware: V10.10
S/N: 50109172
Feature(s): GDBWEBSRV Webserver running on local port 19080 (0010ms, 0037ms total)
T0D6C 000:048   returns O.K. (0010ms, 0037ms total)
T0D6C 000:058 JLINK_SetErrorOutHandler(...) (0000ms, 0037ms total)
T0D6C 000:058 JLINK_ExecCommand("ProjectFile = "C:\CODE\1986бе8р\DMA_ADC_VE8\DMA_ADC_VE8\JLinkSettings.ini"", ...). Device "CORTEX-M4" selected.  returns 0x00 (0077ms, 0114ms total)
T0D6C 000:135 JLINK_ExecCommand("Device = MDR32F8", ...). Device "CORTEX-M4" selected.  returns 0x00 (0001ms, 0115ms total)
T0D6C 000:136 JLINK_ExecCommand("DisableConnectionTimeout", ...).   returns 0x01 (0000ms, 0115ms total)
T0D6C 000:136 JLINK_GetHardwareVersion()  returns 0x18A88 (0000ms, 0115ms total)
T0D6C 000:136 JLINK_GetDLLVersion()  returns 61009 (0000ms, 0115ms total)
T0D6C 000:136 JLINK_GetFirmwareString(...) (0000ms, 0115ms total)
T0D6C 000:136 JLINK_GetDLLVersion()  returns 61009 (0000ms, 0115ms total)
T0D6C 000:136 JLINK_GetCompileDateTime() (0000ms, 0115ms total)
T0D6C 000:136 JLINK_GetFirmwareString(...) (0000ms, 0115ms total)
T0D6C 000:136 JLINK_GetHardwareVersion()  returns 0x18A88 (0000ms, 0115ms total)
T0D6C 000:136 JLINK_TIF_Select(JLINKARM_TIF_SWD)  returns 0x00 (0001ms, 0116ms total)
T0D6C 000:137 JLINK_SetSpeed(2000) (0000ms, 0116ms total)
T0D6C 000:137 JLINK_GetId() >0x108 TIF>Found SWD-DP with ID 0x2BA01477 >0x0D TIF> >0x28 TIF> >0x0D TIF> >0x28 TIF> >0x0D TIF> >0x28 TIF> >0x0D TIF> >0x28 TIF> >0x0D TIF> >0x21 TIF> >0x0D TIF> >0x28 TIF> >0x0D TIF> >0x28 TIF> >0x0D TIF> >0x21 TIF> >0x0D TIF> >0x21 TIF> >0x0D TIF> >0x21 TIF>AP-IDR: 0x24770011, Type: AHB-AP >0x0D TIF> >0x28 TIF> >0x0D TIF> >0x28 TIF> >0x0D TIF> >0x28 TIF> >0x0D TIF> >0x21 TIF> >0x0D TIF> >0x21 TIF> >0x0D TIF> >0x28 TIF> >0x0D TIF> >0x21 TIF> >0x0D TIF> >0x21 TIF>
Found Cortex-M4 r0p1, Little endian. -- CPU_ReadMem(4 bytes @ 0xE000EDF0) -- CPU_ReadMem(4 bytes @ 0xE0002000)FPUnit: 6 code (BP) slots and 2 literal slots -- CPU_ReadMem(4 bytes @ 0xE000EDFC) -- CPU_WriteMem(4 bytes @ 0xE000EDFC) -- CPU_ReadMem(4 bytes @ 0xE0001000) -- CPU_WriteMem(4 bytes @ 0xE0001000) -- CPU_ReadMem(4 bytes @ 0xE000ED88) -- CPU_WriteMem(4 bytes @ 0xE000ED88) -- CPU_ReadMem(4 bytes @ 0xE000ED88) -- CPU_WriteMem(4 bytes @ 0xE000ED88)CoreSight components:ROMTbl 0 @ E00FF000
 -- CPU_ReadMem(16 bytes @ 0xE00FF000) -- CPU_ReadMem(16 bytes @ 0xE000EFF0) -- CPU_ReadMem(16 bytes @ 0xE000EFE0)ROMTbl 0 [0]: FFF0F000, CID: B105E00D, PID: 000BB00C SCS -- CPU_ReadMem(16 bytes @ 0xE0001FF0) -- CPU_ReadMem(16 bytes @ 0xE0001FE0)ROMTbl 0 [1]: FFF02000, CID: B105E00D, PID: 003BB002 DWT -- CPU_ReadMem(16 bytes @ 0xE0002FF0) -- CPU_ReadMem(16 bytes @ 0xE0002FE0)ROMTbl 0 [2]: FFF03000, CID: B105E00D, PID: 002BB003 FPB -- CPU_ReadMem(16 bytes @ 0xE0000FF0)
 -- CPU_ReadMem(16 bytes @ 0xE0000FE0)ROMTbl 0 [3]: FFF01000, CID: B105E00D, PID: 003BB001 ITM -- CPU_ReadMem(16 bytes @ 0xE00FF010) -- CPU_ReadMem(16 bytes @ 0xE0040FF0) -- CPU_ReadMem(16 bytes @ 0xE0040FE0)ROMTbl 0 [4]: FFF41000, CID: B105900D, PID: 000BB9A1 TPIU -- CPU_ReadMem(16 bytes @ 0xE0041FF0) -- CPU_ReadMem(16 bytes @ 0xE0041FE0)ROMTbl 0 [5]: FFF42000, CID: B105900D, PID: 000BB925 ETM >0x0D TIF> >0x21 TIF>  returns 0x2BA01477 (0019ms, 0135ms total)
T0D6C 000:156 JLINK_GetDLLVersion()  returns 61009 (0000ms, 0135ms total)
T0D6C 000:156 JLINK_CORE_GetFound()  returns 0xE0000FF (0000ms, 0135ms total)
T0D6C 000:156 JLINK_GetDebugInfo(0x100) -- Value=0xE00FF000  returns 0x00 (0000ms, 0135ms total)
T0D6C 000:156 JLINK_GetDebugInfo(0x100) -- Value=0xE00FF000  returns 0x00 (0000ms, 0135ms total)
T0D6C 000:156 JLINK_GetDebugInfo(0x101) -- Value=0xE0041000  returns 0x00 (0000ms, 0135ms total)
T0D6C 000:156 JLINK_GetDebugInfo(0x102) -- Value=0x00000000  returns 0x00 (0000ms, 0135ms total)
T0D6C 000:156 JLINK_GetDebugInfo(0x103) -- Value=0xE0040000  returns 0x00 (0000ms, 0135ms total)
T0D6C 000:156 JLINK_GetDebugInfo(0x104) -- Value=0xE0000000  returns 0x00 (0000ms, 0135ms total)
T0D6C 000:156 JLINK_GetDebugInfo(0x105) -- Value=0xE0001000  returns 0x00 (0000ms, 0135ms total)
T0D6C 000:156 JLINK_GetDebugInfo(0x106) -- Value=0xE0002000  returns 0x00 (0000ms, 0135ms total)
T0D6C 000:156 JLINK_GetDebugInfo(0x107) -- Value=0xE000E000  returns 0x00 (0000ms, 0135ms total)
T0D6C 000:156 JLINK_GetDebugInfo(0x10C) -- Value=0xE000EDF0  returns 0x00 (0000ms, 0135ms total)
T0D6C 000:156 JLINK_ReadMemU32(0xE000EF40, 0x0001 Items, ...) -- CPU is running -- CPU_ReadMem(4 bytes @ 0xE000EF40) - Data: 21 00 11 10  returns 0x01 (0001ms, 0136ms total)
T0D6C 000:157 JLINK_ReadMemU32(0xE000EF44, 0x0001 Items, ...) -- CPU is running -- CPU_ReadMem(4 bytes @ 0xE000EF44) - Data: 11 00 00 11  returns 0x01 (0000ms, 0136ms total)
T0D6C 000:157 JLINK_ReadMemU32(0xE000ED00, 0x0001 Items, ...) -- CPU is running -- CPU_ReadMem(4 bytes @ 0xE000ED00) - Data: 41 C2 0F 41  returns 0x01 (0001ms, 0137ms total)
T0D6C 000:158 JLINK_SetResetType(JLINKARM_RESET_TYPE_ADI)  returns JLINKARM_RESET_TYPE_NORMAL (0000ms, 0137ms total)
T0D6C 000:158 JLINK_Reset() -- CPU is running -- CPU_WriteMem(4 bytes @ 0xE000EDF0) -- CPU is running -- CPU_WriteMem(4 bytes @ 0xE000EDFC) -- CPU_WriteMem(4 bytes @ 0xE000EDF0) -- CPU_WriteMem(4 bytes @ 0xE000EDFC) -- CPU_ReadMem(4 bytes @ 0xE000EDF0) -- CPU_WriteMem(4 bytes @ 0xE000EDFC) -- CPU_WriteMem(4 bytes @ 0xE000ED0C) -- CPU_ReadMem(4 bytes @ 0xE000EDF0) -- CPU_ReadMem(4 bytes @ 0xE000EDF0) -- CPU_WriteMem(4 bytes @ 0xE000EDF0) -- CPU_WriteMem(4 bytes @ 0xE000EDFC) -- CPU is running
 -- CPU_ReadMem(4 bytes @ 0xE000EDF0) -- CPU_WriteMem(4 bytes @ 0xE0002000) -- CPU_ReadMem(4 bytes @ 0xE000EDFC) -- CPU_ReadMem(4 bytes @ 0xE0001000) (0152ms, 0289ms total)
T0D6C 000:310 JLINK_ReadReg(R15 (PC))  returns 0x00000238 (0000ms, 0289ms total)
T0D6C 000:310 JLINK_ReadReg(XPSR)  returns 0x01000000 (0000ms, 0289ms total)
T0D6C 000:310 JLINK_Halt()  returns 0x00 (0000ms, 0289ms total)
T0D6C 000:310 JLINK_IsHalted()  returns TRUE (0000ms, 0289ms total)
T0D6C 000:310 JLINK_ReadMemU32(0xE000EDF0, 0x0001 Items, ...) -- CPU_ReadMem(4 bytes @ 0xE000EDF0) - Data: 03 00 03 00  returns 0x01 (0001ms, 0290ms total)
T0D6C 000:311 JLINK_WriteU32(0xE000EDF0, 0xA05F0003) -- CPU_WriteMem(4 bytes @ 0xE000EDF0)  returns 0x00 (0000ms, 0290ms total)
T0D6C 000:311 JLINK_WriteU32(0xE000EDFC, 0x01000000) -- CPU_WriteMem(4 bytes @ 0xE000EDFC)  returns 0x00 (0001ms, 0291ms total)
T0D6C 000:312 JLINK_GetHWStatus(...)  returns 0x00 (0001ms, 0292ms total)
T0D6C 000:313 JLINK_GetNumBPUnits(Type = 0xFFFFFF00)  returns 0x06 (0000ms, 0292ms total)
T0D6C 000:313 JLINK_GetNumBPUnits(Type = 0xF0)  returns 0x2000 (0000ms, 0292ms total)
T0D6C 000:313 JLINK_GetNumWPUnits()  returns 0x04 (0000ms, 0292ms total)
T0D6C 000:313 JLINK_GetSpeed()  returns 0x7D0 (0000ms, 0292ms total)
T0D6C 000:313 JLINK_ReadMemU32(0xE000E004, 0x0001 Items, ...) -- CPU_ReadMem(4 bytes @ 0xE000E004) - Data: 03 00 00 00  returns 0x01 (0000ms, 0292ms total)
T0D6C 000:313 JLINK_ReadMemU32(0xE000E004, 0x0001 Items, ...) -- CPU_ReadMem(4 bytes @ 0xE000E004) - Data: 03 00 00 00  returns 0x01 (0001ms, 0293ms total)
T0D6C 000:314 JLINK_WriteMem(0xE0001000, 0x001C Bytes, ...) - Data: 01 00 00 00 00 00 00 00 00 00 00 00 00 00 00 00 ... -- CPU_WriteMem(28 bytes @ 0xE0001000)  returns 0x1C (0002ms, 0295ms total)
T0D6C 000:316 JLINK_ReadMem (0xE0001000, 0x001C Bytes, ...) -- CPU_ReadMem(28 bytes @ 0xE0001000) - Data: 01 00 00 40 00 00 00 00 00 00 00 00 00 00 00 00 ...  returns 0x00 (0000ms, 0295ms total)
T0D6C 000:316 JLINK_ReadReg(R15 (PC))  returns 0x00000238 (0000ms, 0295ms total)
T0D6C 000:317 JLINK_ReadReg(XPSR)  returns 0x01000000 (0000ms, 0296ms total)
T0D6C 000:343 JLINK_WriteMem(0x20006000, 0x0400 Bytes, ...) - Data: 60 54 00 20 B5 62 00 20 B9 62 00 20 BB 62 00 20 ... -- CPU_WriteMem(1024 bytes @ 0x20006000)  returns 0x400 (0007ms, 0303ms total)
T0D6C 000:350 JLINK_WriteMem(0x20006400, 0x0400 Bytes, ...) - Data: D1 F8 0C 80 4C EA 48 1C D1 F8 10 80 4C EA C8 1C ... -- CPU_WriteMem(1024 bytes @ 0x20006400)  returns 0x400 (0007ms, 0310ms total)
T0D6C 000:357 JLINK_WriteMem(0x20006800, 0x0400 Bytes, ...) - Data: 04 14 17 1A 1D 20 23 26 4F F0 80 47 BA 6F 22 F0 ... -- CPU_WriteMem(1024 bytes @ 0x20006800)  returns 0x400 (0007ms, 0317ms total)
T0D6C 000:364 JLINK_WriteMem(0x20006C00, 0x0400 Bytes, ...) - Data: 01 20 A0 40 10 49 C8 61 01 20 A0 40 0E 49 48 62 ... -- CPU_WriteMem(1024 bytes @ 0x20006C00)  returns 0x400 (0007ms, 0324ms total)
T0D6C 000:372 JLINK_WriteMem(0x20007000, 0x02A0 Bytes, ...) - Data: 4B EA 0E 0B CD F8 14 B0 5B 00 40 1C 64 08 00 2C ... -- CPU_WriteMem(672 bytes @ 0x20007000)  returns 0x2A0 (0005ms, 0329ms total)
T0D6C 000:433 JLINK_SetResetType(JLINKARM_RESET_TYPE_ADI)  returns JLINKARM_RESET_TYPE_ADI (0000ms, 0329ms total)
T0D6C 000:433 JLINK_Reset() -- CPU_WriteMem(4 bytes @ 0xE000EDF0) -- CPU_WriteMem(4 bytes @ 0xE000EDFC) -- CPU_WriteMem(4 bytes @ 0xE000EDF0) -- CPU_WriteMem(4 bytes @ 0xE000EDFC) -- CPU_ReadMem(4 bytes @ 0xE000EDF0) -- CPU_WriteMem(4 bytes @ 0xE000EDFC) -- CPU_WriteMem(4 bytes @ 0xE000ED0C) -- CPU_ReadMem(4 bytes @ 0xE000EDF0) -- CPU_ReadMem(4 bytes @ 0xE000EDF0) -- CPU_WriteMem(4 bytes @ 0xE000EDF0) -- CPU_WriteMem(4 bytes @ 0xE000EDFC) -- CPU is running -- CPU_ReadMem(4 bytes @ 0xE000EDF0)
 -- CPU_WriteMem(4 bytes @ 0xE0002000) -- CPU_ReadMem(4 bytes @ 0xE000EDFC) -- CPU_ReadMem(4 bytes @ 0xE0001000) (0151ms, 0480ms total)
T0D6C 000:584 JLINK_ReadReg(R15 (PC))  returns 0x00000238 (0000ms, 0480ms total)
T0D6C 000:584 JLINK_ReadReg(XPSR)  returns 0x01000000 (0001ms, 0481ms total)
T0D6C 000:585 JLINK_ReadMem (0x00000238, 0x003C Bytes, ...) -- CPU_ReadMem(60 bytes @ 0x00000238) - Data: 1F 4A 4F F0 0F 00 4F EA 00 50 C2 F8 88 00 1D 48 ...  returns 0x00 (0001ms, 0482ms total)
T0D6C 001:520 JLINK_ReadMem (0x400AB01C, 0x01E4 Bytes, ...) -- CPU_ReadMem(484 bytes @ 0x400AB01C) - Data: 00 00 00 00 00 00 00 00 00 00 00 00 00 00 00 00 ...  returns 0x00 (0004ms, 0486ms total)
T0D6C 001:529 JLINK_ReadMem (0x400AB01C, 0x01E4 Bytes, ...) -- CPU_ReadMem(484 bytes @ 0x400AB01C) - Data: 00 00 00 00 00 00 00 00 00 00 00 00 00 00 00 00 ...  returns 0x00 (0003ms, 0489ms total)
T0D6C 001:532 JLINK_ReadMem (0x400AB01C, 0x01E4 Bytes, ...) -- CPU_ReadMem(484 bytes @ 0x400AB01C) - Data: 00 00 00 00 00 00 00 00 00 00 00 00 00 00 00 00 ...  returns 0x00 (0004ms, 0493ms total)
T0D6C 002:187 JLINK_ReadMem (0x20006000, 0x0004 Bytes, ...) -- CPU_ReadMem(4 bytes @ 0x20006000) - Data: 60 54 00 20  returns 0x00 (0001ms, 0494ms total)
T0D6C 002:188 JLINK_WriteReg(R13 (SP), 0x20005460)  returns 0x00 (0000ms, 0494ms total)
T0D6C 002:188 JLINK_ReadReg(R0)  returns 0x00000000 (0000ms, 0494ms total)
T0D6C 002:188 JLINK_ReadReg(R1)  returns 0x00000000 (0000ms, 0494ms total)
T0D6C 002:188 JLINK_ReadReg(R2)  returns 0x00000000 (0000ms, 0494ms total)
T0D6C 002:188 JLINK_ReadReg(R3)  returns 0x00000000 (0000ms, 0494ms total)
T0D6C 002:188 JLINK_ReadReg(R4)  returns 0x00000000 (0000ms, 0494ms total)
T0D6C 002:188 JLINK_ReadReg(R5)  returns 0x00000000 (0000ms, 0494ms total)
T0D6C 002:188 JLINK_ReadReg(R6)  returns 0x00000000 (0000ms, 0494ms total)
T0D6C 002:188 JLINK_ReadReg(R7)  returns 0x00000000 (0000ms, 0494ms total)
T0D6C 002:188 JLINK_ReadReg(R8)  returns 0x00000000 (0000ms, 0494ms total)
T0D6C 002:188 JLINK_ReadReg(R9)  returns 0x00000000 (0000ms, 0494ms total)
T0D6C 002:188 JLINK_ReadReg(R10)  returns 0x00000000 (0000ms, 0494ms total)
T0D6C 002:188 JLINK_ReadReg(R11)  returns 0x00000000 (0000ms, 0494ms total)
T0D6C 002:188 JLINK_ReadReg(R12)  returns 0x00000000 (0000ms, 0494ms total)
T0D6C 002:188 JLINK_ReadReg(R13 (SP))  returns 0x20005460 (0000ms, 0494ms total)
T0D6C 002:188 JLINK_ReadReg(R14)  returns 0xFFFFFFFF (0000ms, 0494ms total)
T0D6C 002:188 JLINK_ReadReg(R15 (PC))  returns 0x00000238 (0000ms, 0494ms total)
T0D6C 002:188 JLINK_ReadReg(XPSR)  returns 0x01000000 (0000ms, 0494ms total)
T0D6C 002:188 JLINK_ReadReg(MSP)  returns 0x20005460 (0000ms, 0494ms total)
T0D6C 002:188 JLINK_ReadReg(PSP)  returns 0x00000000 (0000ms, 0494ms total)
T0D6C 002:188 JLINK_ReadReg(CFBP)  returns 0x00000000 (0000ms, 0494ms total)
T0D6C 002:188 JLINK_ReadReg(FPSCR)  returns 0x00000000 (0005ms, 0499ms total)
T0D6C 002:193 JLINK_ReadReg(FPS0)  returns 0x00000000 (0000ms, 0499ms total)
T0D6C 002:193 JLINK_ReadReg(FPS1)  returns 0x00000000 (0000ms, 0499ms total)
T0D6C 002:193 JLINK_ReadReg(FPS2)  returns 0x00000000 (0000ms, 0499ms total)
T0D6C 002:193 JLINK_ReadReg(FPS3)  returns 0x00000000 (0000ms, 0499ms total)
T0D6C 002:193 JLINK_ReadReg(FPS4)  returns 0x00000000 (0000ms, 0499ms total)
T0D6C 002:193 JLINK_ReadReg(FPS5)  returns 0x00000000 (0000ms, 0499ms total)
T0D6C 002:193 JLINK_ReadReg(FPS6)  returns 0x00000000 (0000ms, 0499ms total)
T0D6C 002:193 JLINK_ReadReg(FPS7)  returns 0x00000000 (0000ms, 0499ms total)
T0D6C 002:193 JLINK_ReadReg(FPS8)  returns 0x00000000 (0000ms, 0499ms total)
T0D6C 002:193 JLINK_ReadReg(FPS9)  returns 0x00000000 (0000ms, 0499ms total)
T0D6C 002:193 JLINK_ReadReg(FPS10)  returns 0x00000000 (0000ms, 0499ms total)
T0D6C 002:193 JLINK_ReadReg(FPS11)  returns 0x00000000 (0000ms, 0499ms total)
T0D6C 002:193 JLINK_ReadReg(FPS12)  returns 0x00000000 (0000ms, 0499ms total)
T0D6C 002:193 JLINK_ReadReg(FPS13)  returns 0x00000000 (0000ms, 0499ms total)
T0D6C 002:193 JLINK_ReadReg(FPS14)  returns 0x00000000 (0000ms, 0499ms total)
T0D6C 002:193 JLINK_ReadReg(FPS15)  returns 0x00000000 (0000ms, 0499ms total)
T0D6C 002:193 JLINK_ReadReg(FPS16)  returns 0x00000000 (0000ms, 0499ms total)
T0D6C 002:193 JLINK_ReadReg(FPS17)  returns 0x00000000 (0000ms, 0499ms total)
T0D6C 002:193 JLINK_ReadReg(FPS18)  returns 0x00000000 (0000ms, 0499ms total)
T0D6C 002:193 JLINK_ReadReg(FPS19)  returns 0x00000000 (0000ms, 0499ms total)
T0D6C 002:193 JLINK_ReadReg(FPS20)  returns 0x00000000 (0000ms, 0499ms total)
T0D6C 002:193 JLINK_ReadReg(FPS21)  returns 0x00000000 (0000ms, 0499ms total)
T0D6C 002:193 JLINK_ReadReg(FPS22)  returns 0x00000000 (0000ms, 0499ms total)
T0D6C 002:193 JLINK_ReadReg(FPS23)  returns 0x00000000 (0000ms, 0499ms total)
T0D6C 002:193 JLINK_ReadReg(FPS24)  returns 0x00000000 (0000ms, 0499ms total)
T0D6C 002:193 JLINK_ReadReg(FPS25)  returns 0x00000000 (0000ms, 0499ms total)
T0D6C 002:193 JLINK_ReadReg(FPS26)  returns 0x00000000 (0000ms, 0499ms total)
T0D6C 002:193 JLINK_ReadReg(FPS27)  returns 0x00000000 (0000ms, 0499ms total)
T0D6C 002:193 JLINK_ReadReg(FPS28)  returns 0x00000000 (0000ms, 0499ms total)
T0D6C 002:193 JLINK_ReadReg(FPS29)  returns 0x00000000 (0000ms, 0499ms total)
T0D6C 002:193 JLINK_ReadReg(FPS30)  returns 0x00000000 (0000ms, 0499ms total)
T0D6C 002:194 JLINK_ReadReg(FPS31)  returns 0x00000000 (0000ms, 0500ms total)
T0D6C 002:194 JLINK_ReadMem (0x20006004, 0x0004 Bytes, ...) -- CPU_ReadMem(4 bytes @ 0x20006004) - Data: B5 62 00 20  returns 0x00 (0000ms, 0500ms total)
T0D6C 002:194 JLINK_WriteReg(R15 (PC), 0x200062B4)  returns 0x00 (0000ms, 0500ms total)
T0D6C 002:194 JLINK_ReadReg(R0)  returns 0x00000000 (0000ms, 0500ms total)
T0D6C 002:194 JLINK_ReadReg(R1)  returns 0x00000000 (0000ms, 0500ms total)
T0D6C 002:194 JLINK_ReadReg(R2)  returns 0x00000000 (0000ms, 0500ms total)
T0D6C 002:194 JLINK_ReadReg(R3)  returns 0x00000000 (0000ms, 0500ms total)
T0D6C 002:194 JLINK_ReadReg(R4)  returns 0x00000000 (0000ms, 0500ms total)
T0D6C 002:194 JLINK_ReadReg(R5)  returns 0x00000000 (0000ms, 0500ms total)
T0D6C 002:194 JLINK_ReadReg(R6)  returns 0x00000000 (0000ms, 0500ms total)
T0D6C 002:194 JLINK_ReadReg(R7)  returns 0x00000000 (0000ms, 0500ms total)
T0D6C 002:194 JLINK_ReadReg(R8)  returns 0x00000000 (0000ms, 0500ms total)
T0D6C 002:194 JLINK_ReadReg(R9)  returns 0x00000000 (0000ms, 0500ms total)
T0D6C 002:194 JLINK_ReadReg(R10)  returns 0x00000000 (0000ms, 0500ms total)
T0D6C 002:194 JLINK_ReadReg(R11)  returns 0x00000000 (0000ms, 0500ms total)
T0D6C 002:194 JLINK_ReadReg(R12)  returns 0x00000000 (0000ms, 0500ms total)
T0D6C 002:194 JLINK_ReadReg(R13 (SP))  returns 0x20005460 (0000ms, 0500ms total)
T0D6C 002:194 JLINK_ReadReg(R14)  returns 0xFFFFFFFF (0000ms, 0500ms total)
T0D6C 002:194 JLINK_ReadReg(R15 (PC))  returns 0x200062B4 (0000ms, 0500ms total)
T0D6C 002:194 JLINK_ReadReg(XPSR)  returns 0x01000000 (0000ms, 0500ms total)
T0D6C 002:194 JLINK_ReadReg(MSP)  returns 0x20005460 (0000ms, 0500ms total)
T0D6C 002:194 JLINK_ReadReg(PSP)  returns 0x00000000 (0000ms, 0500ms total)
T0D6C 002:194 JLINK_ReadReg(CFBP)  returns 0x00000000 (0000ms, 0500ms total)
T0D6C 002:194 JLINK_ReadReg(FPSCR)  returns 0x00000000 (0000ms, 0500ms total)
T0D6C 002:194 JLINK_ReadReg(FPS0)  returns 0x00000000 (0000ms, 0500ms total)
T0D6C 002:194 JLINK_ReadReg(FPS1)  returns 0x00000000 (0000ms, 0500ms total)
T0D6C 002:194 JLINK_ReadReg(FPS2)  returns 0x00000000 (0000ms, 0500ms total)
T0D6C 002:194 JLINK_ReadReg(FPS3)  returns 0x00000000 (0000ms, 0500ms total)
T0D6C 002:194 JLINK_ReadReg(FPS4)  returns 0x00000000 (0000ms, 0500ms total)
T0D6C 002:194 JLINK_ReadReg(FPS5)  returns 0x00000000 (0000ms, 0500ms total)
T0D6C 002:194 JLINK_ReadReg(FPS6)  returns 0x00000000 (0000ms, 0500ms total)
T0D6C 002:194 JLINK_ReadReg(FPS7)  returns 0x00000000 (0000ms, 0500ms total)
T0D6C 002:194 JLINK_ReadReg(FPS8)  returns 0x00000000 (0000ms, 0500ms total)
T0D6C 002:194 JLINK_ReadReg(FPS9)  returns 0x00000000 (0000ms, 0500ms total)
T0D6C 002:194 JLINK_ReadReg(FPS10)  returns 0x00000000 (0000ms, 0500ms total)
T0D6C 002:194 JLINK_ReadReg(FPS11)  returns 0x00000000 (0000ms, 0500ms total)
T0D6C 002:194 JLINK_ReadReg(FPS12)  returns 0x00000000 (0000ms, 0500ms total)
T0D6C 002:194 JLINK_ReadReg(FPS13)  returns 0x00000000 (0000ms, 0500ms total)
T0D6C 002:194 JLINK_ReadReg(FPS14)  returns 0x00000000 (0000ms, 0500ms total)
T0D6C 002:194 JLINK_ReadReg(FPS15)  returns 0x00000000 (0000ms, 0500ms total)
T0D6C 002:194 JLINK_ReadReg(FPS16)  returns 0x00000000 (0000ms, 0500ms total)
T0D6C 002:194 JLINK_ReadReg(FPS17)  returns 0x00000000 (0000ms, 0500ms total)
T0D6C 002:194 JLINK_ReadReg(FPS18)  returns 0x00000000 (0000ms, 0500ms total)
T0D6C 002:194 JLINK_ReadReg(FPS19)  returns 0x00000000 (0000ms, 0500ms total)
T0D6C 002:194 JLINK_ReadReg(FPS20)  returns 0x00000000 (0000ms, 0500ms total)
T0D6C 002:194 JLINK_ReadReg(FPS21)  returns 0x00000000 (0000ms, 0500ms total)
T0D6C 002:194 JLINK_ReadReg(FPS22)  returns 0x00000000 (0000ms, 0500ms total)
T0D6C 002:194 JLINK_ReadReg(FPS23)  returns 0x00000000 (0000ms, 0500ms total)
T0D6C 002:194 JLINK_ReadReg(FPS24)  returns 0x00000000 (0000ms, 0500ms total)
T0D6C 002:194 JLINK_ReadReg(FPS25)  returns 0x00000000 (0000ms, 0500ms total)
T0D6C 002:194 JLINK_ReadReg(FPS26)  returns 0x00000000 (0000ms, 0500ms total)
T0D6C 002:194 JLINK_ReadReg(FPS27)  returns 0x00000000 (0000ms, 0500ms total)
T0D6C 002:194 JLINK_ReadReg(FPS28)  returns 0x00000000 (0000ms, 0500ms total)
T0D6C 002:194 JLINK_ReadReg(FPS29)  returns 0x00000000 (0000ms, 0500ms total)
T0D6C 002:194 JLINK_ReadReg(FPS30)  returns 0x00000000 (0000ms, 0500ms total)
T0D6C 002:194 JLINK_ReadReg(FPS31)  returns 0x00000000 (0000ms, 0500ms total)
T0D6C 002:194 JLINK_WriteMem(0xE000ED08, 0x0004 Bytes, ...) - Data: 00 60 00 20 -- CPU_WriteMem(4 bytes @ 0xE000ED08)  returns 0x04 (0001ms, 0501ms total)
T2360 002:203 JLINK_SetBPEx(Addr = 0x2000718C, Type = 0xFFFFFFF2) -- CPU_ReadMem(4 bytes @ 0x2000718C) -- CPU_WriteMem(4 bytes @ 0x2000718C) -- CPU_ReadMem(4 bytes @ 0x2000718C) -- CPU_WriteMem(4 bytes @ 0x2000718C) -- CPU_ReadMem(2 bytes @ 0x2000718C)  returns 0x00000001 (0001ms, 0502ms total)
T2360 002:204 JLINK_Go() -- CPU_WriteMem(2 bytes @ 0x2000718C) -- CPU_ReadMem(4 bytes @ 0xE0001000) -- CPU_WriteMem(4 bytes @ 0xE0002008) -- CPU_WriteMem(4 bytes @ 0xE000200C) -- CPU_WriteMem(4 bytes @ 0xE0002010) -- CPU_WriteMem(4 bytes @ 0xE0002014) -- CPU_WriteMem(4 bytes @ 0xE0002018) -- CPU_WriteMem(4 bytes @ 0xE000201C) -- CPU_WriteMem(4 bytes @ 0xE0001004) (0003ms, 0505ms total)
T2360 002:307 JLINK_IsHalted() -- CPU_ReadMem(2 bytes @ 0x2000718C)  returns TRUE (0003ms, 0508ms total)
T2360 002:310 JLINK_Halt()  returns 0x00 (0000ms, 0505ms total)
T2360 002:310 JLINK_IsHalted()  returns TRUE (0000ms, 0505ms total)
T2360 002:310 JLINK_IsHalted()  returns TRUE (0000ms, 0505ms total)
T2360 002:310 JLINK_IsHalted()  returns TRUE (0000ms, 0505ms total)
T2360 002:310 JLINK_ReadReg(R15 (PC))  returns 0x2000718C (0000ms, 0505ms total)
T2360 002:310 JLINK_ReadReg(XPSR)  returns 0x21000000 (0000ms, 0505ms total)
T2360 002:310 JLINK_ClrBPEx(BPHandle = 0x00000001)  returns 0x00 (0000ms, 0505ms total)
T2360 002:310 JLINK_ReadMemU32(0xE000ED30, 0x0001 Items, ...) -- CPU_ReadMem(4 bytes @ 0xE000ED30) - Data: 02 00 00 00  returns 0x01 (0000ms, 0505ms total)
T2360 002:310 JLINK_ReadMemU32(0xE0001028, 0x0001 Items, ...) -- CPU_ReadMem(4 bytes @ 0xE0001028) - Data: 00 00 00 00  returns 0x01 (0001ms, 0506ms total)
T2360 002:311 JLINK_ReadMemU32(0xE0001038, 0x0001 Items, ...) -- CPU_ReadMem(4 bytes @ 0xE0001038) - Data: 00 02 00 00  returns 0x01 (0000ms, 0506ms total)
T2360 002:311 JLINK_ReadMemU32(0xE0001048, 0x0001 Items, ...) -- CPU_ReadMem(4 bytes @ 0xE0001048) - Data: 00 00 00 00  returns 0x01 (0000ms, 0506ms total)
T2360 002:311 JLINK_ReadMemU32(0xE0001058, 0x0001 Items, ...) -- CPU_ReadMem(4 bytes @ 0xE0001058) - Data: 00 00 00 00  returns 0x01 (0001ms, 0507ms total)
T2360 002:312 JLINK_ReadReg(R0)  returns 0x20000C60 (0000ms, 0507ms total)
T2360 002:312 JLINK_ReadReg(R1)  returns 0x20004460 (0000ms, 0507ms total)
T2360 002:312 JLINK_ReadReg(R2)  returns 0x20004460 (0000ms, 0507ms total)
T2360 002:312 JLINK_ReadReg(R3)  returns 0x20004460 (0000ms, 0507ms total)
T2360 002:312 JLINK_ReadReg(R4)  returns 0x007A1200 (0000ms, 0507ms total)
T2360 002:312 JLINK_ReadReg(R5)  returns 0x20000C00 (0000ms, 0507ms total)
T2360 002:312 JLINK_ReadReg(R6)  returns 0x00000000 (0000ms, 0507ms total)
T2360 002:312 JLINK_ReadReg(R7)  returns 0x00000000 (0000ms, 0507ms total)
T2360 002:312 JLINK_ReadReg(R8)  returns 0x00000000 (0000ms, 0507ms total)
T2360 002:312 JLINK_ReadReg(R9)  returns 0x00000000 (0000ms, 0507ms total)
T2360 002:312 JLINK_ReadReg(R10)  returns 0x2000725C (0000ms, 0507ms total)
T2360 002:312 JLINK_ReadReg(R11)  returns 0x00000000 (0000ms, 0507ms total)
T2360 002:312 JLINK_ReadReg(R12)  returns 0x20000C40 (0000ms, 0507ms total)
T2360 002:312 JLINK_ReadReg(R13 (SP))  returns 0x20005460 (0000ms, 0507ms total)
T2360 002:312 JLINK_ReadReg(R14)  returns 0x200062A5 (0000ms, 0507ms total)
T2360 002:312 JLINK_ReadReg(R15 (PC))  returns 0x2000718C (0000ms, 0507ms total)
T2360 002:312 JLINK_ReadReg(XPSR)  returns 0x21000000 (0000ms, 0507ms total)
T2360 002:312 JLINK_ReadReg(MSP)  returns 0x20005460 (0000ms, 0507ms total)
T2360 002:312 JLINK_ReadReg(PSP)  returns 0x00000000 (0000ms, 0507ms total)
T2360 002:312 JLINK_ReadReg(CFBP)  returns 0x00000000 (0000ms, 0507ms total)
T2360 002:312 JLINK_ReadReg(FPSCR)  returns 0x00000000 (0005ms, 0512ms total)
T2360 002:317 JLINK_ReadReg(FPS0)  returns 0x00000000 (0000ms, 0512ms total)
T2360 002:317 JLINK_ReadReg(FPS1)  returns 0x00000000 (0000ms, 0512ms total)
T2360 002:317 JLINK_ReadReg(FPS2)  returns 0x00000000 (0000ms, 0512ms total)
T2360 002:317 JLINK_ReadReg(FPS3)  returns 0x00000000 (0000ms, 0512ms total)
T2360 002:317 JLINK_ReadReg(FPS4)  returns 0x00000000 (0000ms, 0512ms total)
T2360 002:317 JLINK_ReadReg(FPS5)  returns 0x00000000 (0000ms, 0512ms total)
T2360 002:317 JLINK_ReadReg(FPS6)  returns 0x00000000 (0000ms, 0512ms total)
T2360 002:317 JLINK_ReadReg(FPS7)  returns 0x00000000 (0000ms, 0512ms total)
T2360 002:317 JLINK_ReadReg(FPS8)  returns 0x00000000 (0000ms, 0512ms total)
T2360 002:317 JLINK_ReadReg(FPS9)  returns 0x00000000 (0000ms, 0512ms total)
T2360 002:317 JLINK_ReadReg(FPS10)  returns 0x00000000 (0000ms, 0512ms total)
T2360 002:317 JLINK_ReadReg(FPS11)  returns 0x00000000 (0000ms, 0512ms total)
T2360 002:317 JLINK_ReadReg(FPS12)  returns 0x00000000 (0000ms, 0512ms total)
T2360 002:317 JLINK_ReadReg(FPS13)  returns 0x00000000 (0000ms, 0512ms total)
T2360 002:317 JLINK_ReadReg(FPS14)  returns 0x00000000 (0000ms, 0512ms total)
T2360 002:317 JLINK_ReadReg(FPS15)  returns 0x00000000 (0000ms, 0512ms total)
T2360 002:317 JLINK_ReadReg(FPS16)  returns 0x00000000 (0000ms, 0512ms total)
T2360 002:317 JLINK_ReadReg(FPS17)  returns 0x00000000 (0000ms, 0512ms total)
T2360 002:317 JLINK_ReadReg(FPS18)  returns 0x00000000 (0000ms, 0512ms total)
T2360 002:317 JLINK_ReadReg(FPS19)  returns 0x00000000 (0000ms, 0512ms total)
T2360 002:317 JLINK_ReadReg(FPS20)  returns 0x00000000 (0000ms, 0512ms total)
T2360 002:317 JLINK_ReadReg(FPS21)  returns 0x00000000 (0000ms, 0512ms total)
T2360 002:317 JLINK_ReadReg(FPS22)  returns 0x00000000 (0000ms, 0512ms total)
T2360 002:317 JLINK_ReadReg(FPS23)  returns 0x00000000 (0000ms, 0512ms total)
T2360 002:317 JLINK_ReadReg(FPS24)  returns 0x00000000 (0000ms, 0512ms total)
T2360 002:317 JLINK_ReadReg(FPS25)  returns 0x00000000 (0000ms, 0512ms total)
T2360 002:317 JLINK_ReadReg(FPS26)  returns 0x00000000 (0000ms, 0512ms total)
T2360 002:317 JLINK_ReadReg(FPS27)  returns 0x00000000 (0000ms, 0512ms total)
T2360 002:317 JLINK_ReadReg(FPS28)  returns 0x00000000 (0000ms, 0512ms total)
T2360 002:317 JLINK_ReadReg(FPS29)  returns 0x00000000 (0000ms, 0512ms total)
T2360 002:317 JLINK_ReadReg(FPS30)  returns 0x00000000 (0000ms, 0512ms total)
T2360 002:317 JLINK_ReadReg(FPS31)  returns 0x00000000 (0000ms, 0512ms total)
T0D6C 002:345 JLINK_ReadMemU32(0xE0001004, 0x0001 Items, ...) -- CPU_ReadMem(4 bytes @ 0xE0001004) - Data: B1 01 00 00  returns 0x01 (0001ms, 0513ms total)
T0D6C 002:346 JLINK_ReadMem (0x400AB01C, 0x01E4 Bytes, ...) -- CPU_ReadMem(484 bytes @ 0x400AB01C) - Data: 00 00 00 00 00 00 00 00 00 00 00 00 00 00 00 00 ...  returns 0x00 (0004ms, 0517ms total)
T0D6C 002:351 JLINK_ReadMem (0x2000708C, 0x003C Bytes, ...) -- CPU_ReadMem(128 bytes @ 0x20007080) -- Updating DA cache (128 bytes @ 0x20007080) -- Read from DA cache (60 bytes @ 0x2000708C) - Data: 15 61 DD F8 4C B0 C2 F8 18 B0 DD F8 50 B0 C2 F8 ...  returns 0x00 (0002ms, 0519ms total)
T0D6C 002:353 JLINK_ReadMem (0x200070C8, 0x003C Bytes, ...) -- CPU_ReadMem(64 bytes @ 0x20007100) -- Updating DA cache (64 bytes @ 0x20007100) -- Read from DA cache (60 bytes @ 0x200070C8) - Data: 5C B0 C2 F8 68 90 C2 F8 70 A0 DD F8 40 B0 C2 F8 ...  returns 0x00 (0000ms, 0519ms total)
T0D6C 002:353 JLINK_ReadMem (0x20007104, 0x003C Bytes, ...) -- Read from DA cache (60 bytes @ 0x20007104) - Data: 01 74 41 74 81 74 C1 74 01 75 41 75 81 75 C1 75 ...  returns 0x00 (0000ms, 0519ms total)
T0D6C 002:353 JLINK_ReadMem (0x20007140, 0x003C Bytes, ...) -- CPU_ReadMem(64 bytes @ 0x20007140) -- Updating DA cache (64 bytes @ 0x20007140) -- Read from DA cache (60 bytes @ 0x20007140) - Data: C2 F8 00 11 11 46 D1 F8 10 11 41 F0 80 51 C2 F8 ...  returns 0x00 (0001ms, 0520ms total)
T0D6C 002:354 JLINK_ReadMem (0x2000718A, 0x0002 Bytes, ...) -- CPU_ReadMem(64 bytes @ 0x20007180) -- Updating DA cache (64 bytes @ 0x20007180) -- Read from DA cache (2 bytes @ 0x2000718A) - Data: 00 40  returns 0x00 (0001ms, 0521ms total)
T0D6C 002:355 JLINK_ReadMem (0x2000718C, 0x003C Bytes, ...) -- CPU_ReadMem(64 bytes @ 0x200071C0) -- Updating DA cache (64 bytes @ 0x200071C0) -- Read from DA cache (60 bytes @ 0x2000718C) -- Merging zombie BP[0]: 0x2005 @ 0x2000718C - Data: 05 20 FF F7 3D FA FF F7 A5 FA FF F7 41 FA 4F F0 ...  returns 0x00 (0001ms, 0522ms total)
T0D6C 002:364 JLINK_ReadMem (0x400AB01C, 0x01E4 Bytes, ...) -- CPU_ReadMem(484 bytes @ 0x400AB01C) - Data: 00 00 00 00 00 00 00 00 00 00 00 00 00 00 00 00 ...  returns 0x00 (0004ms, 0526ms total)
T0D6C 002:369 JLINK_ReadMem (0x400AB01C, 0x01E4 Bytes, ...) -- CPU_ReadMem(484 bytes @ 0x400AB01C) - Data: 00 00 00 00 00 00 00 00 00 00 00 00 00 00 00 00 ...  returns 0x00 (0004ms, 0530ms total)
T0D6C 015:489 JLINK_ReadMem (0x200071FC, 0x003C Bytes, ...) -- CPU_ReadMem(64 bytes @ 0x20007200) -- Updating DA cache (64 bytes @ 0x20007200) -- Read from DA cache (60 bytes @ 0x200071FC) - Data: 3F 21 09 48 1C 38 FF F7 A9 F9 00 BF 0E 48 00 68 ...  returns 0x00 (0001ms, 0531ms total)
T2360 018:304 JLINK_SetBPEx(Addr = 0x20006B68, Type = 0xFFFFFFF2) -- CPU_ReadMem(4 bytes @ 0x20006B68) -- CPU_WriteMem(4 bytes @ 0x20006B68) -- CPU_ReadMem(4 bytes @ 0x20006B68) -- CPU_WriteMem(4 bytes @ 0x20006B68) -- CPU_ReadMem(2 bytes @ 0x20006B68)  returns 0x00000002 (0002ms, 0533ms total)
T2360 018:306 JLINK_SetBPEx(Addr = 0x200071FC, Type = 0xFFFFFFF2) -- CPU_ReadMem(4 bytes @ 0x200071FC) -- CPU_WriteMem(4 bytes @ 0x200071FC) -- CPU_ReadMem(4 bytes @ 0x200071FC) -- CPU_WriteMem(4 bytes @ 0x200071FC) -- CPU_ReadMem(2 bytes @ 0x200071FC)  returns 0x00000003 (0002ms, 0535ms total)
T2360 018:308 JLINK_Go() -- CPU_WriteMem(2 bytes @ 0x20006B68) -- CPU_WriteMem(2 bytes @ 0x200071FC) -- CPU_ReadMem(2 bytes @ 0x2000718C) -- CPU_WriteMem(2 bytes @ 0x2000718C) -- CPU_ReadMem(4 bytes @ 0xE0001000) (0003ms, 0538ms total)
T2360 018:411 JLINK_IsHalted()  returns FALSE (0000ms, 0538ms total)
T2360 018:512 JLINK_IsHalted()  returns FALSE (0000ms, 0538ms total)
T2360 018:613 JLINK_IsHalted()  returns FALSE (0000ms, 0538ms total)
T2360 018:713 JLINK_IsHalted()  returns FALSE (0001ms, 0539ms total)
T2360 018:814 JLINK_IsHalted()  returns FALSE (0001ms, 0539ms total)
T2360 018:915 JLINK_ReadMemU32(0xE0001004, 0x0001 Items, ...) -- CPU is running -- CPU_ReadMem(4 bytes @ 0xE0001004) - Data: 2E 9A 3F 00  returns 0x01 (0001ms, 0539ms total)
T0D6C 018:916 JLINK_ReadMem (0x400AB01C, 0x01E4 Bytes, ...) -- CPU is running -- CPU_ReadMem(484 bytes @ 0x400AB01C) - Data: 00 00 00 00 00 00 00 00 00 00 00 00 00 00 00 00 ...  returns 0x00 (0004ms, 0543ms total)
T2360 018:924 JLINK_IsHalted()  returns FALSE (0000ms, 0543ms total)
T2360 019:024 JLINK_IsHalted()  returns FALSE (0000ms, 0543ms total)
T2360 019:124 JLINK_IsHalted()  returns FALSE (0000ms, 0543ms total)
T2360 019:224 JLINK_IsHalted()  returns FALSE (0000ms, 0543ms total)
T2360 019:324 JLINK_IsHalted()  returns FALSE (0000ms, 0543ms total)
T2360 019:424 JLINK_IsHalted()  returns FALSE (0000ms, 0543ms total)
T2360 019:524 JLINK_ReadMemU32(0xE0001004, 0x0001 Items, ...) -- CPU is running - Data: 2E 9A 3F 00  returns 0x01 (0000ms, 0543ms total)
T0D6C 019:525 JLINK_ReadMem (0x400AB01C, 0x01E4 Bytes, ...) -- CPU is running -- CPU_ReadMem(484 bytes @ 0x400AB01C) - Data: 00 00 00 00 00 00 00 00 00 00 00 00 00 00 00 00 ...  returns 0x00 (0004ms, 0547ms total)
T2360 019:531 JLINK_IsHalted()  returns FALSE (0000ms, 0547ms total)
T2360 019:631 JLINK_IsHalted()  returns FALSE (0000ms, 0547ms total)
T2360 019:731 JLINK_IsHalted()  returns FALSE (0000ms, 0547ms total)
T2360 019:831 JLINK_IsHalted()  returns FALSE (0000ms, 0547ms total)
T2360 019:931 JLINK_IsHalted()  returns FALSE (0002ms, 0549ms total)
T2360 020:033 JLINK_IsHalted()  returns FALSE (0000ms, 0547ms total)
T2360 020:135 JLINK_ReadMemU32(0xE0001004, 0x0001 Items, ...) -- CPU is running - Data: 2E 9A 3F 00  returns 0x01 (0000ms, 0547ms total)
T0D6C 020:138 JLINK_ReadMem (0x400AB01C, 0x01E4 Bytes, ...) -- CPU is running -- CPU_ReadMem(484 bytes @ 0x400AB01C) - Data: 00 00 00 00 00 00 00 00 00 00 00 00 00 00 00 00 ...  returns 0x00 (0004ms, 0551ms total)
T2360 020:146 JLINK_IsHalted()  returns FALSE (0000ms, 0551ms total)
T2360 020:246 JLINK_IsHalted() -- CPU_ReadMem(2 bytes @ 0x20006B68) -- CPU_ReadMem(2 bytes @ 0x200071FC)  returns TRUE (0005ms, 0556ms total)
T2360 020:251 JLINK_Halt()  returns 0x00 (0000ms, 0551ms total)
T2360 020:251 JLINK_IsHalted()  returns TRUE (0000ms, 0551ms total)
T2360 020:251 JLINK_IsHalted()  returns TRUE (0000ms, 0551ms total)
T2360 020:251 JLINK_IsHalted()  returns TRUE (0000ms, 0551ms total)
T2360 020:251 JLINK_ReadReg(R15 (PC))  returns 0x200071FC (0000ms, 0551ms total)
T2360 020:252 JLINK_ReadReg(XPSR)  returns 0x61000000 (0000ms, 0551ms total)
T2360 020:252 JLINK_ClrBPEx(BPHandle = 0x00000002)  returns 0x00 (0000ms, 0551ms total)
T2360 020:252 JLINK_ClrBPEx(BPHandle = 0x00000003)  returns 0x00 (0000ms, 0551ms total)
T2360 020:252 JLINK_ReadMemU32(0xE000ED30, 0x0001 Items, ...) -- CPU_ReadMem(4 bytes @ 0xE000ED30) - Data: 02 00 00 00  returns 0x01 (0000ms, 0551ms total)
T2360 020:252 JLINK_ReadMemU32(0xE0001028, 0x0001 Items, ...) -- CPU_ReadMem(4 bytes @ 0xE0001028) - Data: 00 00 00 00  returns 0x01 (0001ms, 0552ms total)
T2360 020:253 JLINK_ReadMemU32(0xE0001038, 0x0001 Items, ...) -- CPU_ReadMem(4 bytes @ 0xE0001038) - Data: 00 02 00 00  returns 0x01 (0001ms, 0553ms total)
T2360 020:254 JLINK_ReadMemU32(0xE0001048, 0x0001 Items, ...) -- CPU_ReadMem(4 bytes @ 0xE0001048) - Data: 00 00 00 00  returns 0x01 (0001ms, 0554ms total)
T2360 020:255 JLINK_ReadMemU32(0xE0001058, 0x0001 Items, ...) -- CPU_ReadMem(4 bytes @ 0xE0001058) - Data: 00 00 00 00  returns 0x01 (0000ms, 0554ms total)
T2360 020:256 JLINK_ReadReg(R0)  returns 0x00000000 (0000ms, 0554ms total)
T2360 020:256 JLINK_ReadReg(R1)  returns 0x2000003C (0000ms, 0554ms total)
T2360 020:256 JLINK_ReadReg(R2)  returns 0x200000A4 (0000ms, 0554ms total)
T2360 020:256 JLINK_ReadReg(R3)  returns 0x0003F028 (0000ms, 0554ms total)
T2360 020:256 JLINK_ReadReg(R4)  returns 0x007A1200 (0000ms, 0554ms total)
T2360 020:256 JLINK_ReadReg(R5)  returns 0x20000C00 (0000ms, 0554ms total)
T2360 020:256 JLINK_ReadReg(R6)  returns 0x00000000 (0000ms, 0554ms total)
T2360 020:256 JLINK_ReadReg(R7)  returns 0x00000000 (0000ms, 0554ms total)
T2360 020:256 JLINK_ReadReg(R8)  returns 0x00000000 (0000ms, 0554ms total)
T2360 020:256 JLINK_ReadReg(R9)  returns 0x00000000 (0000ms, 0554ms total)
T2360 020:256 JLINK_ReadReg(R10)  returns 0x2000725C (0000ms, 0554ms total)
T2360 020:256 JLINK_ReadReg(R11)  returns 0x00000000 (0000ms, 0554ms total)
T2360 020:256 JLINK_ReadReg(R12)  returns 0x00000000 (0000ms, 0554ms total)
T2360 020:256 JLINK_ReadReg(R13 (SP))  returns 0x20005460 (0000ms, 0554ms total)
T2360 020:256 JLINK_ReadReg(R14)  returns 0x200071F7 (0000ms, 0554ms total)
T2360 020:256 JLINK_ReadReg(R15 (PC))  returns 0x200071FC (0000ms, 0554ms total)
T2360 020:256 JLINK_ReadReg(XPSR)  returns 0x61000000 (0000ms, 0554ms total)
T2360 020:256 JLINK_ReadReg(MSP)  returns 0x20005460 (0000ms, 0554ms total)
T2360 020:256 JLINK_ReadReg(PSP)  returns 0x00000000 (0001ms, 0555ms total)
T2360 020:257 JLINK_ReadReg(CFBP)  returns 0x00000000 (0000ms, 0555ms total)
T2360 020:257 JLINK_ReadReg(FPSCR)  returns 0x00000000 (0006ms, 0561ms total)
T2360 020:263 JLINK_ReadReg(FPS0)  returns 0x00000000 (0000ms, 0561ms total)
T2360 020:263 JLINK_ReadReg(FPS1)  returns 0x00000000 (0000ms, 0561ms total)
T2360 020:263 JLINK_ReadReg(FPS2)  returns 0x00000000 (0000ms, 0561ms total)
T2360 020:263 JLINK_ReadReg(FPS3)  returns 0x00000000 (0000ms, 0561ms total)
T2360 020:263 JLINK_ReadReg(FPS4)  returns 0x00000000 (0000ms, 0561ms total)
T2360 020:263 JLINK_ReadReg(FPS5)  returns 0x00000000 (0000ms, 0561ms total)
T2360 020:263 JLINK_ReadReg(FPS6)  returns 0x00000000 (0000ms, 0561ms total)
T2360 020:263 JLINK_ReadReg(FPS7)  returns 0x00000000 (0000ms, 0561ms total)
T2360 020:263 JLINK_ReadReg(FPS8)  returns 0x00000000 (0000ms, 0561ms total)
T2360 020:263 JLINK_ReadReg(FPS9)  returns 0x00000000 (0000ms, 0561ms total)
T2360 020:263 JLINK_ReadReg(FPS10)  returns 0x00000000 (0000ms, 0561ms total)
T2360 020:263 JLINK_ReadReg(FPS11)  returns 0x00000000 (0000ms, 0561ms total)
T2360 020:263 JLINK_ReadReg(FPS12)  returns 0x00000000 (0000ms, 0561ms total)
T2360 020:263 JLINK_ReadReg(FPS13)  returns 0x00000000 (0000ms, 0561ms total)
T2360 020:263 JLINK_ReadReg(FPS14)  returns 0x00000000 (0000ms, 0561ms total)
T2360 020:263 JLINK_ReadReg(FPS15)  returns 0x00000000 (0000ms, 0561ms total)
T2360 020:264 JLINK_ReadReg(FPS16)  returns 0x00000000 (0000ms, 0561ms total)
T2360 020:264 JLINK_ReadReg(FPS17)  returns 0x00000000 (0000ms, 0561ms total)
T2360 020:264 JLINK_ReadReg(FPS18)  returns 0x00000000 (0000ms, 0561ms total)
T2360 020:264 JLINK_ReadReg(FPS19)  returns 0x00000000 (0000ms, 0561ms total)
T2360 020:264 JLINK_ReadReg(FPS20)  returns 0x00000000 (0000ms, 0561ms total)
T2360 020:264 JLINK_ReadReg(FPS21)  returns 0x00000000 (0000ms, 0561ms total)
T2360 020:264 JLINK_ReadReg(FPS22)  returns 0x00000000 (0000ms, 0561ms total)
T2360 020:264 JLINK_ReadReg(FPS23)  returns 0x00000000 (0000ms, 0561ms total)
T2360 020:264 JLINK_ReadReg(FPS24)  returns 0x00000000 (0000ms, 0561ms total)
T2360 020:264 JLINK_ReadReg(FPS25)  returns 0x00000000 (0000ms, 0561ms total)
T2360 020:264 JLINK_ReadReg(FPS26)  returns 0x00000000 (0000ms, 0561ms total)
T2360 020:264 JLINK_ReadReg(FPS27)  returns 0x00000000 (0000ms, 0561ms total)
T2360 020:264 JLINK_ReadReg(FPS28)  returns 0x00000000 (0000ms, 0561ms total)
T2360 020:264 JLINK_ReadReg(FPS29)  returns 0x00000000 (0000ms, 0561ms total)
T2360 020:264 JLINK_ReadReg(FPS30)  returns 0x00000000 (0000ms, 0561ms total)
T2360 020:264 JLINK_ReadReg(FPS31)  returns 0x00000000 (0000ms, 0561ms total)
T0D6C 020:264 JLINK_ReadMemU32(0xE0001004, 0x0001 Items, ...) - Data: 2E 9A 3F 00  returns 0x01 (0001ms, 0562ms total)
T0D6C 020:265 JLINK_ReadMem (0x400AB01C, 0x01E4 Bytes, ...) -- CPU_ReadMem(484 bytes @ 0x400AB01C) - Data: 5C 07 00 00 00 00 01 00 00 00 02 00 00 00 03 00 ...  returns 0x00 (0004ms, 0566ms total)
T0D6C 022:515 JLINK_ReadMem (0x400AB01C, 0x01E4 Bytes, ...) -- CPU_ReadMem(484 bytes @ 0x400AB01C) - Data: 4D 08 00 00 00 00 01 00 00 00 02 00 00 00 03 00 ...  returns 0x00 (0004ms, 0570ms total)
T0D6C 022:520 JLINK_ReadMem (0x400AB01C, 0x01E4 Bytes, ...) -- CPU_ReadMem(484 bytes @ 0x400AB01C) - Data: 24 08 00 00 00 00 01 00 00 00 02 00 00 00 03 00 ...  returns 0x00 (0004ms, 0574ms total)
T0D6C 022:819 JLINK_ReadMem (0x400AB01C, 0x01E4 Bytes, ...) -- CPU_ReadMem(484 bytes @ 0x400AB01C) - Data: A3 07 00 00 00 00 01 00 00 00 02 00 00 00 03 00 ...  returns 0x00 (0004ms, 0578ms total)
T0D6C 022:823 JLINK_ReadMem (0x400AB01C, 0x01E4 Bytes, ...) -- CPU_ReadMem(484 bytes @ 0x400AB01C) - Data: E1 07 00 00 00 00 01 00 00 00 02 00 00 00 03 00 ...  returns 0x00 (0004ms, 0582ms total)
T0D6C 023:083 JLINK_ReadMem (0x400AB01C, 0x01E4 Bytes, ...) -- CPU_ReadMem(484 bytes @ 0x400AB01C) - Data: C3 07 00 00 00 00 01 00 00 00 02 00 00 00 03 00 ...  returns 0x00 (0004ms, 0586ms total)
T0D6C 023:088 JLINK_ReadMem (0x400AB01C, 0x01E4 Bytes, ...) -- CPU_ReadMem(484 bytes @ 0x400AB01C) - Data: 5E 08 00 00 00 00 01 00 00 00 02 00 00 00 03 00 ...  returns 0x00 (0004ms, 0590ms total)
T0D6C 027:218 JLINK_ReadMem (0x2000008C, 0x0004 Bytes, ...) -- CPU_ReadMem(64 bytes @ 0x20000080) -- Updating DA cache (64 bytes @ 0x20000080) -- Read from DA cache (4 bytes @ 0x2000008C) - Data: 07 00 00 00  returns 0x00 (0002ms, 0592ms total)
T0D6C 027:220 JLINK_ReadMem (0x20000090, 0x0004 Bytes, ...) -- Read from DA cache (4 bytes @ 0x20000090) - Data: 07 00 00 00  returns 0x00 (0000ms, 0592ms total)
T0D6C 027:220 JLINK_ReadMem (0x20000094, 0x0004 Bytes, ...) -- Read from DA cache (4 bytes @ 0x20000094) - Data: 07 00 00 00  returns 0x00 (0000ms, 0592ms total)
T0D6C 027:220 JLINK_ReadMem (0x20000098, 0x0004 Bytes, ...) -- Read from DA cache (4 bytes @ 0x20000098) - Data: 07 00 00 00  returns 0x00 (0000ms, 0592ms total)
T0D6C 027:220 JLINK_ReadMem (0x2000009C, 0x0004 Bytes, ...) -- Read from DA cache (4 bytes @ 0x2000009C) - Data: 07 00 00 00  returns 0x00 (0000ms, 0592ms total)
T0D6C 027:220 JLINK_ReadMem (0x200000A0, 0x0004 Bytes, ...) -- Read from DA cache (4 bytes @ 0x200000A0) - Data: 07 00 00 00  returns 0x00 (0000ms, 0592ms total)
T2360 029:567 JLINK_Step() -- Merging zombie BP[1]: 0x213F @ 0x200071FC -- Merging zombie BP[1]: 0x213F @ 0x200071FC -- CPU_ReadMem(4 bytes @ 0xE000ED18) -- CPU_WriteMem(4 bytes @ 0xE000ED18) -- CPU_ReadMem(4 bytes @ 0xE000ED18) -- CPU_WriteMem(4 bytes @ 0xE000ED18) -- Simulated  returns 0x00 (0003ms, 0595ms total)
T2360 029:570 JLINK_ReadReg(R15 (PC))  returns 0x200071FE (0000ms, 0595ms total)
T2360 029:570 JLINK_ReadReg(XPSR)  returns 0x21000000 (0000ms, 0595ms total)
T2360 029:570 JLINK_SetBPEx(Addr = 0x20006B68, Type = 0xFFFFFFF2)  returns 0x00000004 (0000ms, 0595ms total)
T2360 029:570 JLINK_SetBPEx(Addr = 0x200071FC, Type = 0xFFFFFFF2)  returns 0x00000005 (0000ms, 0595ms total)
T2360 029:570 JLINK_Go() -- CPU_ReadMem(4 bytes @ 0xE0001000) -- CPU_WriteMem(4 bytes @ 0xE0001004) (0002ms, 0597ms total)
T2360 029:672 JLINK_IsHalted() -- CPU_ReadMem(2 bytes @ 0x20006B68) -- CPU_ReadMem(2 bytes @ 0x200071FC)  returns TRUE (0005ms, 0602ms total)
T2360 029:677 JLINK_Halt()  returns 0x00 (0000ms, 0597ms total)
T2360 029:677 JLINK_IsHalted()  returns TRUE (0000ms, 0597ms total)
T2360 029:677 JLINK_IsHalted()  returns TRUE (0000ms, 0597ms total)
T2360 029:677 JLINK_IsHalted()  returns TRUE (0000ms, 0597ms total)
T2360 029:677 JLINK_ReadReg(R15 (PC))  returns 0x20006B68 (0000ms, 0597ms total)
T2360 029:677 JLINK_ReadReg(XPSR)  returns 0x21000043 (0000ms, 0597ms total)
T2360 029:677 JLINK_ClrBPEx(BPHandle = 0x00000004)  returns 0x00 (0000ms, 0597ms total)
T2360 029:677 JLINK_ClrBPEx(BPHandle = 0x00000005)  returns 0x00 (0001ms, 0598ms total)
T2360 029:678 JLINK_ReadMemU32(0xE000ED30, 0x0001 Items, ...) -- CPU_ReadMem(4 bytes @ 0xE000ED30) - Data: 02 00 00 00  returns 0x01 (0000ms, 0598ms total)
T2360 029:678 JLINK_ReadMemU32(0xE0001028, 0x0001 Items, ...) -- CPU_ReadMem(4 bytes @ 0xE0001028) - Data: 00 00 00 00  returns 0x01 (0001ms, 0599ms total)
T2360 029:679 JLINK_ReadMemU32(0xE0001038, 0x0001 Items, ...) -- CPU_ReadMem(4 bytes @ 0xE0001038) - Data: 00 02 00 00  returns 0x01 (0000ms, 0599ms total)
T2360 029:679 JLINK_ReadMemU32(0xE0001048, 0x0001 Items, ...) -- CPU_ReadMem(4 bytes @ 0xE0001048) - Data: 00 00 00 00  returns 0x01 (0001ms, 0600ms total)
T2360 029:680 JLINK_ReadMemU32(0xE0001058, 0x0001 Items, ...) -- CPU_ReadMem(4 bytes @ 0xE0001058) - Data: 00 00 00 00  returns 0x01 (0000ms, 0600ms total)
T2360 029:681 JLINK_ReadReg(R0)  returns 0x00000000 (0000ms, 0600ms total)
T2360 029:681 JLINK_ReadReg(R1)  returns 0x00000001 (0000ms, 0600ms total)
T2360 029:681 JLINK_ReadReg(R2)  returns 0x00000001 (0000ms, 0600ms total)
T2360 029:681 JLINK_ReadReg(R3)  returns 0xE0042000 (0000ms, 0600ms total)
T2360 029:681 JLINK_ReadReg(R4)  returns 0x007A1200 (0000ms, 0600ms total)
T2360 029:681 JLINK_ReadReg(R5)  returns 0x20000C00 (0000ms, 0600ms total)
T2360 029:681 JLINK_ReadReg(R6)  returns 0x00000000 (0000ms, 0600ms total)
T2360 029:681 JLINK_ReadReg(R7)  returns 0x00000000 (0000ms, 0600ms total)
T2360 029:681 JLINK_ReadReg(R8)  returns 0x00000000 (0000ms, 0600ms total)
T2360 029:681 JLINK_ReadReg(R9)  returns 0x00000000 (0000ms, 0600ms total)
T2360 029:681 JLINK_ReadReg(R10)  returns 0x2000725C (0000ms, 0600ms total)
T2360 029:681 JLINK_ReadReg(R11)  returns 0x00000000 (0000ms, 0600ms total)
T2360 029:681 JLINK_ReadReg(R12)  returns 0x00000000 (0000ms, 0600ms total)
T2360 029:681 JLINK_ReadReg(R13 (SP))  returns 0x20005438 (0000ms, 0600ms total)
T2360 029:681 JLINK_ReadReg(R14)  returns 0x20006B69 (0000ms, 0600ms total)
T2360 029:681 JLINK_ReadReg(R15 (PC))  returns 0x20006B68 (0000ms, 0600ms total)
T2360 029:681 JLINK_ReadReg(XPSR)  returns 0x21000043 (0001ms, 0601ms total)
T2360 029:682 JLINK_ReadReg(MSP)  returns 0x20005438 (0000ms, 0601ms total)
T2360 029:682 JLINK_ReadReg(PSP)  returns 0x00000000 (0000ms, 0601ms total)
T2360 029:682 JLINK_ReadReg(CFBP)  returns 0x00000000 (0000ms, 0601ms total)
T2360 029:682 JLINK_ReadReg(FPSCR)  returns 0x00000000 (0006ms, 0607ms total)
T2360 029:688 JLINK_ReadReg(FPS0)  returns 0x00000000 (0000ms, 0607ms total)
T2360 029:688 JLINK_ReadReg(FPS1)  returns 0x00000000 (0000ms, 0607ms total)
T2360 029:688 JLINK_ReadReg(FPS2)  returns 0x00000000 (0000ms, 0607ms total)
T2360 029:688 JLINK_ReadReg(FPS3)  returns 0x00000000 (0000ms, 0607ms total)
T2360 029:688 JLINK_ReadReg(FPS4)  returns 0x00000000 (0000ms, 0607ms total)
T2360 029:688 JLINK_ReadReg(FPS5)  returns 0x00000000 (0000ms, 0607ms total)
T2360 029:688 JLINK_ReadReg(FPS6)  returns 0x00000000 (0000ms, 0607ms total)
T2360 029:688 JLINK_ReadReg(FPS7)  returns 0x00000000 (0000ms, 0607ms total)
T2360 029:688 JLINK_ReadReg(FPS8)  returns 0x00000000 (0000ms, 0607ms total)
T2360 029:688 JLINK_ReadReg(FPS9)  returns 0x00000000 (0000ms, 0607ms total)
T2360 029:688 JLINK_ReadReg(FPS10)  returns 0x00000000 (0000ms, 0607ms total)
T2360 029:688 JLINK_ReadReg(FPS11)  returns 0x00000000 (0000ms, 0607ms total)
T2360 029:688 JLINK_ReadReg(FPS12)  returns 0x00000000 (0001ms, 0608ms total)
T2360 029:689 JLINK_ReadReg(FPS13)  returns 0x00000000 (0000ms, 0608ms total)
T2360 029:689 JLINK_ReadReg(FPS14)  returns 0x00000000 (0000ms, 0608ms total)
T2360 029:689 JLINK_ReadReg(FPS15)  returns 0x00000000 (0000ms, 0608ms total)
T2360 029:689 JLINK_ReadReg(FPS16)  returns 0x00000000 (0000ms, 0608ms total)
T2360 029:689 JLINK_ReadReg(FPS17)  returns 0x00000000 (0000ms, 0608ms total)
T2360 029:689 JLINK_ReadReg(FPS18)  returns 0x00000000 (0000ms, 0608ms total)
T2360 029:689 JLINK_ReadReg(FPS19)  returns 0x00000000 (0000ms, 0608ms total)
T2360 029:689 JLINK_ReadReg(FPS20)  returns 0x00000000 (0000ms, 0608ms total)
T2360 029:689 JLINK_ReadReg(FPS21)  returns 0x00000000 (0000ms, 0608ms total)
T2360 029:689 JLINK_ReadReg(FPS22)  returns 0x00000000 (0000ms, 0608ms total)
T2360 029:689 JLINK_ReadReg(FPS23)  returns 0x00000000 (0000ms, 0608ms total)
T2360 029:689 JLINK_ReadReg(FPS24)  returns 0x00000000 (0000ms, 0608ms total)
T2360 029:689 JLINK_ReadReg(FPS25)  returns 0x00000000 (0000ms, 0608ms total)
T2360 029:689 JLINK_ReadReg(FPS26)  returns 0x00000000 (0000ms, 0608ms total)
T2360 029:689 JLINK_ReadReg(FPS27)  returns 0x00000000 (0000ms, 0608ms total)
T2360 029:689 JLINK_ReadReg(FPS28)  returns 0x00000000 (0000ms, 0608ms total)
T2360 029:689 JLINK_ReadReg(FPS29)  returns 0x00000000 (0000ms, 0608ms total)
T2360 029:689 JLINK_ReadReg(FPS30)  returns 0x00000000 (0000ms, 0608ms total)
T2360 029:689 JLINK_ReadReg(FPS31)  returns 0x00000000 (0000ms, 0608ms total)
T0D6C 029:690 JLINK_ReadMemU32(0xE0001004, 0x0001 Items, ...) -- CPU_ReadMem(4 bytes @ 0xE0001004) - Data: 14 9E 3F 00  returns 0x01 (0001ms, 0610ms total)
T0D6C 029:696 JLINK_ReadMem (0x20006B60, 0x003C Bytes, ...) -- CPU_ReadMem(128 bytes @ 0x20006B40) -- Updating DA cache (128 bytes @ 0x20006B40) -- Read from DA cache (60 bytes @ 0x20006B60) -- Merging zombie BP[0]: 0x2001 @ 0x20006B68 - Data: 01 21 00 20 FF F7 AA FF 01 20 09 49 08 60 33 20 ...  returns 0x00 (0001ms, 0611ms total)
T2360 031:999 JLINK_Step() -- Merging zombie BP[0]: 0x2001 @ 0x20006B68 -- Merging zombie BP[0]: 0x2001 @ 0x20006B68 -- Simulated  returns 0x00 (0001ms, 0612ms total)
T2360 032:000 JLINK_ReadReg(R15 (PC))  returns 0x20006B6A (0000ms, 0612ms total)
T2360 032:000 JLINK_ReadReg(XPSR)  returns 0x21000043 (0000ms, 0612ms total)
T2360 032:000 JLINK_SetBPEx(Addr = 0x20006B68, Type = 0xFFFFFFF2)  returns 0x00000006 (0000ms, 0612ms total)
T2360 032:000 JLINK_SetBPEx(Addr = 0x200071FC, Type = 0xFFFFFFF2)  returns 0x00000007 (0000ms, 0612ms total)
T2360 032:000 JLINK_Go() -- CPU_ReadMem(4 bytes @ 0xE0001000) -- CPU_WriteMem(4 bytes @ 0xE0001004) (0002ms, 0614ms total)
T2360 032:103 JLINK_IsHalted()  returns FALSE (0001ms, 0616ms total)
T2360 032:204 JLINK_IsHalted()  returns FALSE (0000ms, 0615ms total)
T2360 032:305 JLINK_IsHalted() -- CPU_ReadMem(2 bytes @ 0x20006B68) -- CPU_ReadMem(2 bytes @ 0x200071FC)  returns TRUE (0005ms, 0620ms total)
T2360 032:310 JLINK_Halt()  returns 0x00 (0000ms, 0615ms total)
T2360 032:310 JLINK_IsHalted()  returns TRUE (0000ms, 0615ms total)
T2360 032:310 JLINK_IsHalted()  returns TRUE (0000ms, 0615ms total)
T2360 032:310 JLINK_IsHalted()  returns TRUE (0000ms, 0615ms total)
T2360 032:311 JLINK_ReadReg(R15 (PC))  returns 0x200071FC (0000ms, 0615ms total)
T2360 032:311 JLINK_ReadReg(XPSR)  returns 0x61000000 (0000ms, 0615ms total)
T2360 032:311 JLINK_ClrBPEx(BPHandle = 0x00000006)  returns 0x00 (0000ms, 0615ms total)
T2360 032:311 JLINK_ClrBPEx(BPHandle = 0x00000007)  returns 0x00 (0000ms, 0615ms total)
T2360 032:311 JLINK_ReadMemU32(0xE000ED30, 0x0001 Items, ...) -- CPU_ReadMem(4 bytes @ 0xE000ED30) - Data: 02 00 00 00  returns 0x01 (0000ms, 0615ms total)
T2360 032:311 JLINK_ReadMemU32(0xE0001028, 0x0001 Items, ...) -- CPU_ReadMem(4 bytes @ 0xE0001028) - Data: 00 00 00 00  returns 0x01 (0001ms, 0616ms total)
T2360 032:312 JLINK_ReadMemU32(0xE0001038, 0x0001 Items, ...) -- CPU_ReadMem(4 bytes @ 0xE0001038) - Data: 00 02 00 00  returns 0x01 (0001ms, 0617ms total)
T2360 032:313 JLINK_ReadMemU32(0xE0001048, 0x0001 Items, ...) -- CPU_ReadMem(4 bytes @ 0xE0001048) - Data: 00 00 00 00  returns 0x01 (0001ms, 0618ms total)
T2360 032:314 JLINK_ReadMemU32(0xE0001058, 0x0001 Items, ...) -- CPU_ReadMem(4 bytes @ 0xE0001058) - Data: 00 00 00 00  returns 0x01 (0001ms, 0619ms total)
T2360 032:315 JLINK_ReadReg(R0)  returns 0x00000000 (0000ms, 0619ms total)
T2360 032:315 JLINK_ReadReg(R1)  returns 0x2000003C (0000ms, 0619ms total)
T2360 032:315 JLINK_ReadReg(R2)  returns 0x200000A4 (0000ms, 0619ms total)
T2360 032:315 JLINK_ReadReg(R3)  returns 0x0003F028 (0000ms, 0619ms total)
T2360 032:315 JLINK_ReadReg(R4)  returns 0x007A1200 (0000ms, 0619ms total)
T2360 032:315 JLINK_ReadReg(R5)  returns 0x20000C00 (0000ms, 0619ms total)
T2360 032:315 JLINK_ReadReg(R6)  returns 0x00000000 (0000ms, 0619ms total)
T2360 032:315 JLINK_ReadReg(R7)  returns 0x00000000 (0000ms, 0619ms total)
T2360 032:315 JLINK_ReadReg(R8)  returns 0x00000000 (0000ms, 0619ms total)
T2360 032:315 JLINK_ReadReg(R9)  returns 0x00000000 (0000ms, 0619ms total)
T2360 032:315 JLINK_ReadReg(R10)  returns 0x2000725C (0000ms, 0619ms total)
T2360 032:315 JLINK_ReadReg(R11)  returns 0x00000000 (0000ms, 0619ms total)
T2360 032:315 JLINK_ReadReg(R12)  returns 0x00000000 (0001ms, 0620ms total)
T2360 032:316 JLINK_ReadReg(R13 (SP))  returns 0x20005460 (0000ms, 0620ms total)
T2360 032:316 JLINK_ReadReg(R14)  returns 0x200071F7 (0000ms, 0620ms total)
